
T141C 001:224 SEGGER J-Link V4.15n (beta) Log File (0003ms, 1221ms total)
T141C 001:224 DLL Compiled: Jun 18 2010 19:55:09 (0003ms, 1221ms total)
T141C 001:224 Logging started @ 2012-07-06 17:12 (0003ms, 1221ms total)
T141C 001:227 JLINK_SetWarnOutHandler(...) (0000ms, 1224ms total)
T141C 001:227 JLINK_OpenEx(...)
Firmware: J-Link ARM V8 compiled Dec  1 2015 11:42:48
Hardware: V8.00
S/N: 20080643
Feature(s): RDI,FlashDL,FlashBP,JFlash,GDBFull  returns O.K. (0474ms, 1224ms total)
T141C 001:701 JLINK_SetErrorOutHandler(...) (0000ms, 1698ms total)
T141C 001:702 JLINK_ExecCommand("ProjectFile = "E:\项目\PDA项目 长沙\20120416 PDA资料汇总\2012年6月PDA最新版调试程序\RC522\PDA_Test_RC522\user\JLinkSettings.ini"", ...)  returns 0x00 (0000ms, 1698ms total)
T141C 001:703 JLINK_ExecCommand("DisableConnectionTimeout", ...)  returns 0x00 (0000ms, 1698ms total)
T141C 001:705 JLINK_TIF_Select(JLINKARM_TIF_JTAG)  returns 0x00 (0000ms, 1698ms total)
T141C 001:707 JLINK_SetSpeed(2000) (0000ms, 1698ms total)
T141C 001:707 JLINK_GetHardwareVersion()  returns 0x13880 (0000ms, 1698ms total)
T141C 001:707 JLINK_GetDLLVersion()  returns 41514 (0000ms, 1698ms total)
T141C 001:708 JLINK_GetFirmwareString(...) (0000ms, 1698ms total)
T141C 001:708 JLINK_GetDLLVersion()  returns 41514 (0000ms, 1698ms total)
T141C 001:708 JLINK_GetCompileDateTime() (0000ms, 1698ms total)
T141C 001:708 JLINK_GetFirmwareString(...) (0000ms, 1698ms total)
T141C 001:708 JLINK_GetHardwareVersion()  returns 0x13880 (0000ms, 1698ms total)
T141C 001:709 JLINK_Reset() >0x2F8 JTAG>TotalIRLen = 9, IRPrint = 0x0011 >0x30 JTAG> >0x210 JTAG> >0x118 JTAG> >0xD8 JTAG> >0x198 JTAG> >0x38 JTAG> >0x118 JTAG> >0xD8 JTAG> >0x2F0 JTAG> >0x2F0 JTAG> >0x198 JTAG> >0x198 JTAG>Found Cortex-M3 r1p1, Little endian. >0xD8 JTAG> >0x240 JTAG> >0x198 JTAG> >0x198 JTAG>TPIU fitted. >0x198 JTAG>ETM fitted. >0x198 JTAG>  FPUnit: 6 code (BP) slots and 2 literal slots >0x198 JTAG> >0x250 JTAG> >0x240 JTAG> >0x280 JTAG> >0x198 JTAG> >0x198 JTAG> >0x240 JTAG>
 >0x240 JTAG> >0x198 JTAG> >0x198 JTAG> >0x17A8 JTAG> >0x240 JTAG> >0x198 JTAG> >0x17A8 JTAG> >0x198 JTAG> >0x1F0 JTAG> >0x1F0 JTAG> >0x1F0 JTAG> >0x1F0 JTAG> >0x1F0 JTAG> (0113ms, 1698ms total)
T141C 001:822 JLINK_GetIdData(...) ScanLen=9 NumDevices=2 aId[0]=0x3BA00477 aIrRead[0]=0 aScanLen[0]=0 aScanRead[0]=0 (0001ms, 1811ms total)
T141C 001:823 JLINK_JTAG_GetDeviceID(DeviceIndex = 0)  returns 0x3BA00477 (0000ms, 1812ms total)
T141C 001:823 JLINK_JTAG_GetDeviceInfo(DeviceIndex = 0)  returns 0x00 (0000ms, 1812ms total)
T141C 001:823 JLINK_JTAG_GetDeviceID(DeviceIndex = 1)  returns 0x6414041 (0000ms, 1812ms total)
T141C 001:823 JLINK_JTAG_GetDeviceInfo(DeviceIndex = 1)  returns 0x00 (0000ms, 1812ms total)
T141C 001:823 JLINK_GetDebugInfo(0x100) -- Value=0xE00FF003  returns 0x00 (0000ms, 1812ms total)
T141C 001:823 JLINK_ReadMem (0xE00FF000, 0x0018 Bytes, ...) >0x320 JTAG> -- Data:  03 F0 F0 FF 03 20 F0 FF 03 30 F0 FF 03 10 F0 FF ...  returns 0x00 (0003ms, 1812ms total)
T141C 001:826 JLINK_ReadMemU32(0xE000ED00, 0x0001 Items, ...) >0x1F0 JTAG> -- Data:  31 C2 1F 41  returns 0x01 (0002ms, 1815ms total)
T141C 001:829 JLINK_Halt()  returns 0x00 (0000ms, 1817ms total)
T141C 001:829 JLINK_IsHalted()  returns TRUE (0000ms, 1817ms total)
T141C 001:829 JLINK_ReadMemU32(0xE000EDF0, 0x0001 Items, ...) >0x1F0 JTAG> -- Data:  03 00 03 00  returns 0x01 (0003ms, 1817ms total)
T141C 001:832 JLINK_WriteU32(0xE000EDF0, 0xA05F0003) >0x1F0 JTAG>  returns 0x00 (0001ms, 1820ms total)
T141C 001:833 JLINK_WriteU32(0xE000EDFC, 0x01000000) >0x1F0 JTAG>  returns 0x00 (0002ms, 1821ms total)
T141C 001:835 JLINK_ReadMemU32(0xE0002000, 0x0001 Items, ...) >0x1F0 JTAG> -- Data:  60 02 00 00  returns 0x01 (0002ms, 1823ms total)
T141C 001:837 JLINK_ReadMemU32(0xE0001000, 0x0001 Items, ...) >0x1F0 JTAG> -- Data:  01 00 00 40  returns 0x01 (0002ms, 1825ms total)
T141C 001:840 JLINK_ExecCommand("Device = STM32F103ZE", ...)
                JLINK_ExecCommand("map ram 0x20000000 - 0x2000FFFF", ...)  returns 0x00 (0000ms, 0000ms total)
                JLINK_AddMirrorAreaEx(Addr = 0x00000000, Size = 0x00000000) (0000ms, 0000ms total)
                returns 0x00 (0001ms, 1827ms total)
T141C 001:841 JLINK_GetHWStatus(...)  returns 0x00 (0001ms, 1828ms total)
T141C 001:843 JLINK_GetNumBPUnits(Type = 0xFFFFFF00) >0x2F8 JTAG>TotalIRLen = 9, IRPrint = 0x0011 >0x30 JTAG> >0x210 JTAG> >0x118 JTAG> >0xD8 JTAG> >0x198 JTAG> >0x38 JTAG> >0x118 JTAG> >0xD8 JTAG> >0x2F0 JTAG> >0x2F0 JTAG> >0x198 JTAG> >0x198 JTAG>Found Cortex-M3 r1p1, Little endian. >0xD8 JTAG> >0x240 JTAG> >0x198 JTAG> >0x198 JTAG>TPIU fitted. >0x198 JTAG>ETM fitted. >0x198 JTAG>  FPUnit: 6 code (BP) slots and 2 literal slots >0x198 JTAG>  returns 0x06 (0046ms, 1829ms total)
T141C 001:889 JLINK_GetNumBPUnits(Type = 0xF0)  returns 0x800 (0000ms, 1875ms total)
T141C 001:889 JLINK_GetNumWPUnits()  returns 0x04 (0000ms, 1875ms total)
T141C 001:889 JLINK_GetSpeed()  returns 0x7D0 (0000ms, 1875ms total)
T141C 001:889 JLINK_ReadMemU32(0xE000E004, 0x0001 Items, ...) >0x200 JTAG> -- Data:  01 00 00 00  returns 0x01 (0004ms, 1875ms total)
T141C 001:893 JLINK_WriteMem(0xE0001000, 0x001C Bytes, ...) -- Data:  01 00 00 00 00 00 00 00 00 00 00 00 00 00 00 00 ... >0x310 JTAG>  returns 0x1C (0003ms, 1879ms total)
T141C 001:896 JLINK_ReadMem (0xE0001000, 0x001C Bytes, ...) >0x358 JTAG> -- Data:  01 00 00 40 00 00 00 00 00 00 00 00 00 00 00 00 ...  returns 0x00 (0003ms, 1882ms total)
T141C 001:899 JLINK_ReadReg(R15)  returns 0x0800018C (0000ms, 1885ms total)
T141C 001:899 JLINK_ReadReg(XPSR)  returns 0x01000000 (0000ms, 1885ms total)
T141C 002:684 JLINK_SetResetType(JLINKARM_RESET_TYPE_NORMAL)  returns JLINKARM_RESET_TYPE_NORMAL (0000ms, 1885ms total)
T141C 002:684 JLINK_Reset() >0x2F8 JTAG>TotalIRLen = 9, IRPrint = 0x0011 >0x30 JTAG> >0x210 JTAG> >0x118 JTAG> >0xD8 JTAG> >0x198 JTAG> >0x38 JTAG> >0x118 JTAG> >0xD8 JTAG> >0x2F0 JTAG> >0x2F0 JTAG> >0x198 JTAG> >0x198 JTAG>Found Cortex-M3 r1p1, Little endian. >0xD8 JTAG> >0x240 JTAG> >0x198 JTAG> >0x198 JTAG>TPIU fitted. >0x198 JTAG>ETM fitted. >0x198 JTAG>  FPUnit: 6 code (BP) slots and 2 literal slots >0x198 JTAG> >0x250 JTAG> >0x240 JTAG> >0x280 JTAG> >0x198 JTAG> >0x198 JTAG> >0x240 JTAG>
 >0x240 JTAG> >0x198 JTAG> >0x198 JTAG> >0x240 JTAG> >0x198 JTAG> >0x17A8 JTAG> >0x198 JTAG> >0x1F0 JTAG> >0x1F0 JTAG> >0x1F0 JTAG> >0x1F0 JTAG> >0x1F0 JTAG> (0101ms, 1885ms total)
T141C 002:786 JLINK_ReadReg(R15)  returns 0x0800018C (0000ms, 1986ms total)
T141C 002:786 JLINK_ReadReg(XPSR)  returns 0x01000000 (0000ms, 1986ms total)
T141C 002:786 JLINK_ReadReg(R0)  returns 0x00000000 (0000ms, 1986ms total)
T141C 002:786 JLINK_ReadReg(R1)  returns 0x00000003 (0000ms, 1986ms total)
T141C 002:786 JLINK_ReadReg(R2)  returns 0x40022000 (0000ms, 1986ms total)
T141C 002:786 JLINK_ReadReg(R3)  returns 0x04C11DB7 (0000ms, 1986ms total)
T141C 002:786 JLINK_ReadReg(R4)  returns 0x00000000 (0001ms, 1986ms total)
T141C 002:787 JLINK_ReadReg(R5)  returns 0x00000000 (0000ms, 1987ms total)
T141C 002:787 JLINK_ReadReg(R6)  returns 0x00000000 (0000ms, 1987ms total)
T141C 002:787 JLINK_ReadReg(R7)  returns 0x00000000 (0000ms, 1987ms total)
T141C 002:787 JLINK_ReadReg(R8)  returns 0x00000000 (0000ms, 1987ms total)
T141C 002:787 JLINK_ReadReg(R9)  returns 0x20000160 (0000ms, 1987ms total)
T141C 002:787 JLINK_ReadReg(R10)  returns 0x00000000 (0000ms, 1987ms total)
T141C 002:787 JLINK_ReadReg(R11)  returns 0x00000000 (0000ms, 1987ms total)
T141C 002:787 JLINK_ReadReg(R12)  returns 0x00000000 (0000ms, 1987ms total)
T141C 002:787 JLINK_ReadReg(R13)  returns 0x200002C8 (0000ms, 1987ms total)
T141C 002:787 JLINK_ReadReg(R14)  returns 0xFFFFFFFF (0000ms, 1987ms total)
T141C 002:787 JLINK_ReadReg(R15)  returns 0x0800018C (0000ms, 1987ms total)
T141C 002:787 JLINK_ReadReg(XPSR)  returns 0x01000000 (0000ms, 1987ms total)
T141C 002:787 JLINK_ReadReg(MSP)  returns 0x200002C8 (0000ms, 1987ms total)
T141C 002:787 JLINK_ReadReg(PSP)  returns 0x20000800 (0000ms, 1987ms total)
T141C 002:787 JLINK_ReadReg(CFBP)  returns 0x00000000 (0000ms, 1987ms total)
T141C 002:788 JLINK_ReadMemU32(0xE0001004, 0x0001 Items, ...) >0x1F0 JTAG> -- Data:  00 00 00 00  returns 0x01 (0002ms, 1987ms total)
T141C 002:790 JLINK_ReadMem (0x0800018C, 0x003C Bytes, ...) >0x938 JTAG> -- Updating C cache (128 bytes @ 0x08000180) -- Read from C cache (60 bytes @ 0x0800018C) -- Data:  08 48 00 47 FE E7 FE E7 FE E7 FE E7 FE E7 FE E7 ...  returns 0x00 (0004ms, 1989ms total)
T166C 013:452 JLINK_SetBPEx(Addr = 0x080016E6, Type = 0xFFFFFFF2)  returns 0x00000001 (0002ms, 1993ms total)
T166C 013:454 JLINK_SetBPEx(Addr = 0x080016EA, Type = 0xFFFFFFF2)  returns 0x00000002 (0000ms, 1995ms total)
T166C 013:455 JLINK_Go() >0x198 JTAG> >0x1F0 JTAG> >0x1F0 JTAG> >0x1F0 JTAG> >0x1F0 JTAG> >0x1F0 JTAG> >0x1F0 JTAG> >0x1F0 JTAG> >0x240 JTAG> >0x240 JTAG> (0036ms, 1995ms total)
T166C 013:591 JLINK_IsHalted() >0x198 JTAG> >0x17A8 JTAG>  returns TRUE (0010ms, 2031ms total)
T166C 013:601 JLINK_Halt()  returns 0x00 (0000ms, 2031ms total)
T166C 013:601 JLINK_IsHalted()  returns TRUE (0000ms, 2031ms total)
T166C 013:601 JLINK_IsHalted()  returns TRUE (0000ms, 2031ms total)
T166C 013:601 JLINK_IsHalted()  returns TRUE (0000ms, 2031ms total)
T166C 013:602 JLINK_ReadReg(R15)  returns 0x080016E6 (0000ms, 2031ms total)
T166C 013:602 JLINK_ReadReg(XPSR)  returns 0x21000000 (0000ms, 2031ms total)
T166C 013:602 JLINK_ClrBPEx(BPHandle = 0x00000001)  returns 0x00 (0000ms, 2031ms total)
T166C 013:602 JLINK_ClrBPEx(BPHandle = 0x00000002)  returns 0x00 (0000ms, 2031ms total)
T166C 013:602 JLINK_ReadMemU32(0xE000ED30, 0x0001 Items, ...) >0x1F0 JTAG> -- Data:  0B 00 00 00  returns 0x01 (0003ms, 2031ms total)
T166C 013:605 JLINK_ReadMemU32(0xE0001028, 0x0001 Items, ...) >0x1F0 JTAG> -- Data:  00 00 00 00  returns 0x01 (0004ms, 2034ms total)
T166C 013:609 JLINK_ReadMemU32(0xE0001038, 0x0001 Items, ...) >0x1F0 JTAG> -- Data:  00 02 00 00  returns 0x01 (0002ms, 2038ms total)
T166C 013:611 JLINK_ReadMemU32(0xE0001048, 0x0001 Items, ...) >0x1F0 JTAG> -- Data:  00 00 00 00  returns 0x01 (0003ms, 2040ms total)
T166C 013:614 JLINK_ReadMemU32(0xE0001058, 0x0001 Items, ...) >0x1F0 JTAG> -- Data:  00 00 00 00  returns 0x01 (0003ms, 2043ms total)
T166C 013:618 JLINK_ReadReg(R0)  returns 0x000000FE (0000ms, 2046ms total)
T166C 013:618 JLINK_ReadReg(R1)  returns 0x00000100 (0000ms, 2046ms total)
T166C 013:618 JLINK_ReadReg(R2)  returns 0x0000E0FE (0000ms, 2046ms total)
T166C 013:618 JLINK_ReadReg(R3)  returns 0x2000029C (0000ms, 2046ms total)
T166C 013:618 JLINK_ReadReg(R4)  returns 0x000000FF (0000ms, 2046ms total)
T166C 013:618 JLINK_ReadReg(R5)  returns 0x20000064 (0000ms, 2046ms total)
T166C 013:619 JLINK_ReadReg(R6)  returns 0x00000000 (0000ms, 2046ms total)
T166C 013:619 JLINK_ReadReg(R7)  returns 0x00000000 (0000ms, 2046ms total)
T166C 013:619 JLINK_ReadReg(R8)  returns 0x00000000 (0000ms, 2046ms total)
T166C 013:619 JLINK_ReadReg(R9)  returns 0x20000160 (0000ms, 2046ms total)
T166C 013:619 JLINK_ReadReg(R10)  returns 0x08001F84 (0000ms, 2046ms total)
T166C 013:619 JLINK_ReadReg(R11)  returns 0x00000000 (0000ms, 2046ms total)
T166C 013:619 JLINK_ReadReg(R12)  returns 0x0000000F (0001ms, 2046ms total)
T166C 013:620 JLINK_ReadReg(R13)  returns 0x200002C0 (0000ms, 2047ms total)
T166C 013:620 JLINK_ReadReg(R14)  returns 0x08001BA9 (0000ms, 2047ms total)
T166C 013:620 JLINK_ReadReg(R15)  returns 0x080016E6 (0000ms, 2047ms total)
T166C 013:620 JLINK_ReadReg(XPSR)  returns 0x21000000 (0000ms, 2047ms total)
T166C 013:620 JLINK_ReadReg(MSP)  returns 0x200002C0 (0000ms, 2047ms total)
T166C 013:620 JLINK_ReadReg(PSP)  returns 0x20000800 (0001ms, 2047ms total)
T166C 013:621 JLINK_ReadReg(CFBP)  returns 0x00000000 (0000ms, 2048ms total)
T166C 013:621 JLINK_ReadMem (0x200002C4, 0x0004 Bytes, ...) >0x578 JTAG> -- Updating C cache (64 bytes @ 0x200002C0) -- Read from C cache (4 bytes @ 0x200002C4) -- Data:  49 17 00 08  returns 0x00 (0003ms, 2048ms total)
T141C 013:625 JLINK_ReadMemU32(0xE0001004, 0x0001 Items, ...) >0x1F0 JTAG> -- Data:  7E 3F 06 00  returns 0x01 (0003ms, 2051ms total)
T141C 013:828 JLINK_ReadMem (0x080016E6, 0x0002 Bytes, ...) >0x578 JTAG> -- Updating C cache (64 bytes @ 0x080016C0) -- Read from C cache (2 bytes @ 0x080016E6) -- Data:  00 20  returns 0x00 (0003ms, 2054ms total)
T141C 013:831 JLINK_ReadMem (0x080016E8, 0x003C Bytes, ...) >0x578 JTAG> -- Updating C cache (64 bytes @ 0x08001700) -- Read from C cache (60 bytes @ 0x080016E8) -- Data:  3A E6 00 BF 00 20 17 49 10 39 08 54 40 1C C0 B2 ...  returns 0x00 (0002ms, 2057ms total)
T166C 017:216 JLINK_Step() >0x198 JTAG> -- Read from C cache (2 bytes @ 0x080016E6) -- Simulated  returns 0x00 (0006ms, 2059ms total)
T166C 017:222 JLINK_ReadReg(R15)  returns 0x080016E8 (0000ms, 2065ms total)
T166C 017:222 JLINK_ReadReg(XPSR)  returns 0x61000000 (0000ms, 2065ms total)
T166C 017:222 JLINK_SetBPEx(Addr = 0x080016E6, Type = 0xFFFFFFF2)  returns 0x00000003 (0000ms, 2065ms total)
T166C 017:223 JLINK_SetBPEx(Addr = 0x080016EA, Type = 0xFFFFFFF2)  returns 0x00000004 (0000ms, 2066ms total)
T166C 017:223 JLINK_Go() >0x1F0 JTAG> >0x1F0 JTAG> >0x1F0 JTAG> >0x1F0 JTAG> >0x1F0 JTAG> >0x1F0 JTAG> >0x310 JTAG> >0x218 JTAG> >0x218 JTAG> >0x240 JTAG> >0x240 JTAG> (0046ms, 2066ms total)
T166C 017:370 JLINK_IsHalted() >0x198 JTAG> >0x17A8 JTAG>  returns TRUE (0009ms, 2112ms total)
T166C 017:379 JLINK_Halt()  returns 0x00 (0000ms, 2112ms total)
T166C 017:379 JLINK_IsHalted()  returns TRUE (0000ms, 2112ms total)
T166C 017:379 JLINK_IsHalted()  returns TRUE (0000ms, 2112ms total)
T166C 017:379 JLINK_IsHalted()  returns TRUE (0000ms, 2112ms total)
T166C 017:379 JLINK_ReadReg(R15)  returns 0x080016E6 (0000ms, 2112ms total)
T166C 017:379 JLINK_ReadReg(XPSR)  returns 0x21000000 (0001ms, 2112ms total)
T166C 017:380 JLINK_ClrBPEx(BPHandle = 0x00000003)  returns 0x00 (0000ms, 2113ms total)
T166C 017:380 JLINK_ClrBPEx(BPHandle = 0x00000004)  returns 0x00 (0000ms, 2113ms total)
T166C 017:380 JLINK_ReadMemU32(0xE000ED30, 0x0001 Items, ...) >0x1F0 JTAG> -- Data:  0B 00 00 00  returns 0x01 (0003ms, 2113ms total)
T166C 017:383 JLINK_ReadMemU32(0xE0001028, 0x0001 Items, ...) >0x1F0 JTAG> -- Data:  00 00 00 00  returns 0x01 (0004ms, 2116ms total)
T166C 017:387 JLINK_ReadMemU32(0xE0001038, 0x0001 Items, ...) >0x1F0 JTAG> -- Data:  00 02 00 00  returns 0x01 (0003ms, 2120ms total)
T166C 017:390 JLINK_ReadMemU32(0xE0001048, 0x0001 Items, ...) >0x1F0 JTAG> -- Data:  00 00 00 00  returns 0x01 (0003ms, 2123ms total)
T166C 017:393 JLINK_ReadMemU32(0xE0001058, 0x0001 Items, ...) >0x1F0 JTAG> -- Data:  00 00 00 00  returns 0x01 (0003ms, 2126ms total)
T166C 017:404 JLINK_ReadReg(R0)  returns 0x000000FE (0000ms, 2133ms total)
T166C 017:404 JLINK_ReadReg(R1)  returns 0x00000100 (0000ms, 2133ms total)
T166C 017:406 JLINK_ReadReg(R2)  returns 0x0000E0FE (0000ms, 2133ms total)
T166C 017:406 JLINK_ReadReg(R3)  returns 0x2000029C (0000ms, 2133ms total)
T166C 017:406 JLINK_ReadReg(R4)  returns 0x000000FF (0000ms, 2133ms total)
T166C 017:406 JLINK_ReadReg(R5)  returns 0x20000064 (0000ms, 2133ms total)
T166C 017:406 JLINK_ReadReg(R6)  returns 0x00000000 (0000ms, 2133ms total)
T166C 017:406 JLINK_ReadReg(R7)  returns 0x00000000 (0000ms, 2133ms total)
T166C 017:406 JLINK_ReadReg(R8)  returns 0x00000000 (0001ms, 2133ms total)
T166C 017:407 JLINK_ReadReg(R9)  returns 0x20000160 (0000ms, 2134ms total)
T166C 017:407 JLINK_ReadReg(R10)  returns 0x08001F84 (0000ms, 2134ms total)
T166C 017:407 JLINK_ReadReg(R11)  returns 0x00000000 (0000ms, 2134ms total)
T166C 017:407 JLINK_ReadReg(R12)  returns 0x0000000F (0000ms, 2134ms total)
T166C 017:407 JLINK_ReadReg(R13)  returns 0x200002C0 (0000ms, 2134ms total)
T166C 017:407 JLINK_ReadReg(R14)  returns 0x08001BA9 (0001ms, 2134ms total)
T166C 017:408 JLINK_ReadReg(R15)  returns 0x080016E6 (0000ms, 2135ms total)
T166C 017:408 JLINK_ReadReg(XPSR)  returns 0x21000000 (0000ms, 2135ms total)
T166C 017:408 JLINK_ReadReg(MSP)  returns 0x200002C0 (0000ms, 2135ms total)
T166C 017:408 JLINK_ReadReg(PSP)  returns 0x20000800 (0001ms, 2135ms total)
T166C 017:409 JLINK_ReadReg(CFBP)  returns 0x00000000 (0000ms, 2136ms total)
T166C 017:409 JLINK_ReadMem (0x200002C4, 0x0004 Bytes, ...) >0x578 JTAG> -- Updating C cache (64 bytes @ 0x200002C0) -- Read from C cache (4 bytes @ 0x200002C4) -- Data:  49 17 00 08  returns 0x00 (0005ms, 2136ms total)
T141C 017:415 JLINK_ReadMemU32(0xE0001004, 0x0001 Items, ...) >0x1F0 JTAG> -- Data:  B4 10 0B 00  returns 0x01 (0003ms, 2141ms total)
T166C 019:176 JLINK_Step() >0x198 JTAG> >0x578 JTAG> -- Updating C cache (64 bytes @ 0x080016C0) -- Read from C cache (2 bytes @ 0x080016E6) -- Simulated  returns 0x00 (0008ms, 2144ms total)
T166C 019:184 JLINK_ReadReg(R15)  returns 0x080016E8 (0000ms, 2152ms total)
T166C 019:184 JLINK_ReadReg(XPSR)  returns 0x61000000 (0000ms, 2152ms total)
T166C 019:184 JLINK_SetBPEx(Addr = 0x080016E6, Type = 0xFFFFFFF2)  returns 0x00000005 (0000ms, 2152ms total)
T166C 019:184 JLINK_SetBPEx(Addr = 0x080016EA, Type = 0xFFFFFFF2)  returns 0x00000006 (0001ms, 2152ms total)
T166C 019:185 JLINK_Go() >0x1F0 JTAG> >0x1F0 JTAG> >0x1F0 JTAG> >0x1F0 JTAG> >0x1F0 JTAG> >0x1F0 JTAG> >0x310 JTAG> >0x218 JTAG> >0x218 JTAG> >0x240 JTAG> >0x240 JTAG> (0033ms, 2153ms total)
T166C 019:319 JLINK_IsHalted() >0x198 JTAG> >0x17A8 JTAG>  returns TRUE (0010ms, 2186ms total)
T166C 019:329 JLINK_Halt()  returns 0x00 (0001ms, 2186ms total)
T166C 019:330 JLINK_IsHalted()  returns TRUE (0000ms, 2187ms total)
T166C 019:330 JLINK_IsHalted()  returns TRUE (0000ms, 2187ms total)
T166C 019:330 JLINK_IsHalted()  returns TRUE (0000ms, 2187ms total)
T166C 019:330 JLINK_ReadReg(R15)  returns 0x080016E6 (0000ms, 2187ms total)
T166C 019:330 JLINK_ReadReg(XPSR)  returns 0x21000000 (0000ms, 2187ms total)
T166C 019:330 JLINK_ClrBPEx(BPHandle = 0x00000005)  returns 0x00 (0001ms, 2187ms total)
T166C 019:331 JLINK_ClrBPEx(BPHandle = 0x00000006)  returns 0x00 (0000ms, 2188ms total)
T166C 019:331 JLINK_ReadMemU32(0xE000ED30, 0x0001 Items, ...) >0x1F0 JTAG> -- Data:  0B 00 00 00  returns 0x01 (0002ms, 2188ms total)
T166C 019:333 JLINK_ReadMemU32(0xE0001028, 0x0001 Items, ...) >0x1F0 JTAG> -- Data:  00 00 00 00  returns 0x01 (0003ms, 2190ms total)
T166C 019:336 JLINK_ReadMemU32(0xE0001038, 0x0001 Items, ...) >0x1F0 JTAG> -- Data:  00 02 00 00  returns 0x01 (0003ms, 2193ms total)
T166C 019:339 JLINK_ReadMemU32(0xE0001048, 0x0001 Items, ...) >0x1F0 JTAG> -- Data:  00 00 00 00  returns 0x01 (0003ms, 2196ms total)
T166C 019:342 JLINK_ReadMemU32(0xE0001058, 0x0001 Items, ...) >0x1F0 JTAG> -- Data:  00 00 00 00  returns 0x01 (0003ms, 2199ms total)
T166C 019:345 JLINK_ReadReg(R0)  returns 0x000000FE (0000ms, 2202ms total)
T166C 019:345 JLINK_ReadReg(R1)  returns 0x00000100 (0000ms, 2202ms total)
T166C 019:345 JLINK_ReadReg(R2)  returns 0x0000E0FE (0000ms, 2202ms total)
T166C 019:346 JLINK_ReadReg(R3)  returns 0x2000029C (0000ms, 2202ms total)
T166C 019:346 JLINK_ReadReg(R4)  returns 0x000000FF (0000ms, 2202ms total)
T166C 019:346 JLINK_ReadReg(R5)  returns 0x20000064 (0000ms, 2202ms total)
T166C 019:346 JLINK_ReadReg(R6)  returns 0x00000000 (0000ms, 2202ms total)
T166C 019:346 JLINK_ReadReg(R7)  returns 0x00000000 (0000ms, 2202ms total)
T166C 019:346 JLINK_ReadReg(R8)  returns 0x00000000 (0000ms, 2202ms total)
T166C 019:346 JLINK_ReadReg(R9)  returns 0x20000160 (0000ms, 2202ms total)
T166C 019:347 JLINK_ReadReg(R10)  returns 0x08001F84 (0000ms, 2203ms total)
T166C 019:347 JLINK_ReadReg(R11)  returns 0x00000000 (0000ms, 2203ms total)
T166C 019:347 JLINK_ReadReg(R12)  returns 0x0000000F (0000ms, 2203ms total)
T166C 019:347 JLINK_ReadReg(R13)  returns 0x200002C0 (0000ms, 2203ms total)
T166C 019:347 JLINK_ReadReg(R14)  returns 0x08001BA9 (0000ms, 2203ms total)
T166C 019:347 JLINK_ReadReg(R15)  returns 0x080016E6 (0000ms, 2203ms total)
T166C 019:347 JLINK_ReadReg(XPSR)  returns 0x21000000 (0001ms, 2203ms total)
T166C 019:348 JLINK_ReadReg(MSP)  returns 0x200002C0 (0000ms, 2204ms total)
T166C 019:348 JLINK_ReadReg(PSP)  returns 0x20000800 (0000ms, 2204ms total)
T166C 019:348 JLINK_ReadReg(CFBP)  returns 0x00000000 (0000ms, 2204ms total)
T166C 019:348 JLINK_ReadMem (0x200002C4, 0x0004 Bytes, ...) >0x578 JTAG> -- Updating C cache (64 bytes @ 0x200002C0) -- Read from C cache (4 bytes @ 0x200002C4) -- Data:  49 17 00 08  returns 0x00 (0004ms, 2204ms total)
T141C 019:353 JLINK_ReadMemU32(0xE0001004, 0x0001 Items, ...) >0x1F0 JTAG> -- Data:  BA D4 0F 00  returns 0x01 (0003ms, 2208ms total)
T166C 020:698 JLINK_Step() >0x198 JTAG> >0x578 JTAG> -- Updating C cache (64 bytes @ 0x080016C0) -- Read from C cache (2 bytes @ 0x080016E6) -- Simulated  returns 0x00 (0008ms, 2211ms total)
T166C 020:707 JLINK_ReadReg(R15)  returns 0x080016E8 (0000ms, 2219ms total)
T166C 020:707 JLINK_ReadReg(XPSR)  returns 0x61000000 (0000ms, 2219ms total)
T166C 020:707 JLINK_SetBPEx(Addr = 0x080016E6, Type = 0xFFFFFFF2)  returns 0x00000007 (0000ms, 2219ms total)
T166C 020:707 JLINK_SetBPEx(Addr = 0x080016EA, Type = 0xFFFFFFF2)  returns 0x00000008 (0000ms, 2219ms total)
T166C 020:707 JLINK_Go() >0x1F0 JTAG> >0x1F0 JTAG> >0x1F0 JTAG> >0x1F0 JTAG> >0x1F0 JTAG> >0x1F0 JTAG> >0x310 JTAG> >0x218 JTAG> >0x218 JTAG> >0x240 JTAG> >0x240 JTAG> (0033ms, 2219ms total)
T166C 020:840 JLINK_IsHalted() >0x198 JTAG> >0x17A8 JTAG>  returns TRUE (0010ms, 2252ms total)
T166C 020:850 JLINK_Halt()  returns 0x00 (0000ms, 2252ms total)
T166C 020:850 JLINK_IsHalted()  returns TRUE (0000ms, 2252ms total)
T166C 020:850 JLINK_IsHalted()  returns TRUE (0000ms, 2252ms total)
T166C 020:850 JLINK_IsHalted()  returns TRUE (0001ms, 2252ms total)
T166C 020:851 JLINK_ReadReg(R15)  returns 0x080016E6 (0000ms, 2252ms total)
T166C 020:851 JLINK_ReadReg(XPSR)  returns 0x21000000 (0000ms, 2252ms total)
T166C 020:851 JLINK_ClrBPEx(BPHandle = 0x00000007)  returns 0x00 (0000ms, 2252ms total)
T166C 020:851 JLINK_ClrBPEx(BPHandle = 0x00000008)  returns 0x00 (0000ms, 2252ms total)
T166C 020:851 JLINK_ReadMemU32(0xE000ED30, 0x0001 Items, ...) >0x1F0 JTAG> -- Data:  0B 00 00 00  returns 0x01 (0003ms, 2252ms total)
T166C 020:854 JLINK_ReadMemU32(0xE0001028, 0x0001 Items, ...) >0x1F0 JTAG> -- Data:  00 00 00 00  returns 0x01 (0003ms, 2255ms total)
T166C 020:857 JLINK_ReadMemU32(0xE0001038, 0x0001 Items, ...) >0x1F0 JTAG> -- Data:  00 02 00 00  returns 0x01 (0003ms, 2258ms total)
T166C 020:860 JLINK_ReadMemU32(0xE0001048, 0x0001 Items, ...) >0x1F0 JTAG> -- Data:  00 00 00 00  returns 0x01 (0003ms, 2261ms total)
T166C 020:863 JLINK_ReadMemU32(0xE0001058, 0x0001 Items, ...) >0x1F0 JTAG> -- Data:  00 00 00 00  returns 0x01 (0003ms, 2264ms total)
T166C 020:866 JLINK_ReadReg(R0)  returns 0x000000FE (0001ms, 2267ms total)
T166C 020:867 JLINK_ReadReg(R1)  returns 0x00000100 (0000ms, 2268ms total)
T166C 020:867 JLINK_ReadReg(R2)  returns 0x0000E0FE (0000ms, 2268ms total)
T166C 020:867 JLINK_ReadReg(R3)  returns 0x2000029C (0000ms, 2268ms total)
T166C 020:867 JLINK_ReadReg(R4)  returns 0x000000FF (0000ms, 2268ms total)
T166C 020:867 JLINK_ReadReg(R5)  returns 0x20000064 (0000ms, 2268ms total)
T166C 020:867 JLINK_ReadReg(R6)  returns 0x00000000 (0000ms, 2268ms total)
T166C 020:868 JLINK_ReadReg(R7)  returns 0x00000000 (0000ms, 2269ms total)
T166C 020:868 JLINK_ReadReg(R8)  returns 0x00000000 (0000ms, 2269ms total)
T166C 020:868 JLINK_ReadReg(R9)  returns 0x20000160 (0000ms, 2269ms total)
T166C 020:868 JLINK_ReadReg(R10)  returns 0x08001F84 (0000ms, 2269ms total)
T166C 020:868 JLINK_ReadReg(R11)  returns 0x00000000 (0000ms, 2269ms total)
T166C 020:868 JLINK_ReadReg(R12)  returns 0x0000000F (0000ms, 2269ms total)
T166C 020:868 JLINK_ReadReg(R13)  returns 0x200002C0 (0002ms, 2269ms total)
T166C 020:870 JLINK_ReadReg(R14)  returns 0x08001BA9 (0000ms, 2271ms total)
T166C 020:870 JLINK_ReadReg(R15)  returns 0x080016E6 (0000ms, 2271ms total)
T166C 020:870 JLINK_ReadReg(XPSR)  returns 0x21000000 (0000ms, 2271ms total)
T166C 020:870 JLINK_ReadReg(MSP)  returns 0x200002C0 (0000ms, 2271ms total)
T166C 020:870 JLINK_ReadReg(PSP)  returns 0x20000800 (0000ms, 2271ms total)
T166C 020:870 JLINK_ReadReg(CFBP)  returns 0x00000000 (0000ms, 2271ms total)
T166C 020:871 JLINK_ReadMem (0x200002C4, 0x0004 Bytes, ...) >0x578 JTAG> -- Updating C cache (64 bytes @ 0x200002C0) -- Read from C cache (4 bytes @ 0x200002C4) -- Data:  49 17 00 08  returns 0x00 (0003ms, 2272ms total)
T141C 020:875 JLINK_ReadMemU32(0xE0001004, 0x0001 Items, ...) >0x1F0 JTAG> -- Data:  11 67 14 00  returns 0x01 (0003ms, 2275ms total)
T166C 022:668 JLINK_Step() >0x198 JTAG> >0x578 JTAG> -- Updating C cache (64 bytes @ 0x080016C0) -- Read from C cache (2 bytes @ 0x080016E6) -- Simulated  returns 0x00 (0010ms, 2278ms total)
T166C 022:678 JLINK_ReadReg(R15)  returns 0x080016E8 (0000ms, 2288ms total)
T166C 022:678 JLINK_ReadReg(XPSR)  returns 0x61000000 (0000ms, 2288ms total)
T166C 022:678 JLINK_SetBPEx(Addr = 0x080016E6, Type = 0xFFFFFFF2)  returns 0x00000009 (0000ms, 2288ms total)
T166C 022:678 JLINK_SetBPEx(Addr = 0x080016EA, Type = 0xFFFFFFF2)  returns 0x0000000A (0001ms, 2288ms total)
T166C 022:679 JLINK_Go() >0x1F0 JTAG> >0x1F0 JTAG> >0x1F0 JTAG> >0x1F0 JTAG> >0x1F0 JTAG> >0x1F0 JTAG> >0x310 JTAG> >0x218 JTAG> >0x218 JTAG> >0x240 JTAG> >0x240 JTAG> (0034ms, 2289ms total)
T166C 022:814 JLINK_IsHalted() >0x198 JTAG> >0x17A8 JTAG>  returns TRUE (0009ms, 2323ms total)
T166C 022:823 JLINK_Halt()  returns 0x00 (0001ms, 2323ms total)
T166C 022:824 JLINK_IsHalted()  returns TRUE (0000ms, 2324ms total)
T166C 022:824 JLINK_IsHalted()  returns TRUE (0000ms, 2324ms total)
T166C 022:824 JLINK_IsHalted()  returns TRUE (0000ms, 2324ms total)
T166C 022:824 JLINK_ReadReg(R15)  returns 0x080016E6 (0000ms, 2324ms total)
T166C 022:824 JLINK_ReadReg(XPSR)  returns 0x21000000 (0000ms, 2324ms total)
T166C 022:824 JLINK_ClrBPEx(BPHandle = 0x00000009)  returns 0x00 (0000ms, 2324ms total)
T166C 022:824 JLINK_ClrBPEx(BPHandle = 0x0000000A)  returns 0x00 (0001ms, 2324ms total)
T166C 022:825 JLINK_ReadMemU32(0xE000ED30, 0x0001 Items, ...) >0x1F0 JTAG> -- Data:  0B 00 00 00  returns 0x01 (0002ms, 2325ms total)
T166C 022:827 JLINK_ReadMemU32(0xE0001028, 0x0001 Items, ...) >0x1F0 JTAG> -- Data:  00 00 00 00  returns 0x01 (0004ms, 2327ms total)
T166C 022:831 JLINK_ReadMemU32(0xE0001038, 0x0001 Items, ...) >0x1F0 JTAG> -- Data:  00 02 00 00  returns 0x01 (0002ms, 2331ms total)
T166C 022:833 JLINK_ReadMemU32(0xE0001048, 0x0001 Items, ...) >0x1F0 JTAG> -- Data:  00 00 00 00  returns 0x01 (0003ms, 2333ms total)
T166C 022:836 JLINK_ReadMemU32(0xE0001058, 0x0001 Items, ...) >0x1F0 JTAG> -- Data:  00 00 00 00  returns 0x01 (0003ms, 2336ms total)
T166C 022:839 JLINK_ReadReg(R0)  returns 0x000000FE (0000ms, 2339ms total)
T166C 022:839 JLINK_ReadReg(R1)  returns 0x00000100 (0000ms, 2339ms total)
T166C 022:839 JLINK_ReadReg(R2)  returns 0x0000E0FE (0000ms, 2339ms total)
T166C 022:840 JLINK_ReadReg(R3)  returns 0x2000029C (0000ms, 2340ms total)
T166C 022:840 JLINK_ReadReg(R4)  returns 0x000000FF (0000ms, 2340ms total)
T166C 022:840 JLINK_ReadReg(R5)  returns 0x20000064 (0000ms, 2340ms total)
T166C 022:840 JLINK_ReadReg(R6)  returns 0x00000000 (0000ms, 2340ms total)
T166C 022:840 JLINK_ReadReg(R7)  returns 0x00000000 (0000ms, 2340ms total)
T166C 022:840 JLINK_ReadReg(R8)  returns 0x00000000 (0000ms, 2340ms total)
T166C 022:840 JLINK_ReadReg(R9)  returns 0x20000160 (0001ms, 2340ms total)
T166C 022:841 JLINK_ReadReg(R10)  returns 0x08001F84 (0000ms, 2341ms total)
T166C 022:841 JLINK_ReadReg(R11)  returns 0x00000000 (0000ms, 2341ms total)
T166C 022:841 JLINK_ReadReg(R12)  returns 0x0000000F (0000ms, 2341ms total)
T166C 022:841 JLINK_ReadReg(R13)  returns 0x200002C0 (0000ms, 2341ms total)
T166C 022:841 JLINK_ReadReg(R14)  returns 0x08001BA9 (0000ms, 2341ms total)
T166C 022:841 JLINK_ReadReg(R15)  returns 0x080016E6 (0000ms, 2341ms total)
T166C 022:841 JLINK_ReadReg(XPSR)  returns 0x21000000 (0001ms, 2341ms total)
T166C 022:842 JLINK_ReadReg(MSP)  returns 0x200002C0 (0000ms, 2342ms total)
T166C 022:842 JLINK_ReadReg(PSP)  returns 0x20000800 (0001ms, 2342ms total)
T166C 022:843 JLINK_ReadReg(CFBP)  returns 0x00000000 (0000ms, 2343ms total)
T166C 022:843 JLINK_ReadMem (0x200002C4, 0x0004 Bytes, ...) >0x578 JTAG> -- Updating C cache (64 bytes @ 0x200002C0) -- Read from C cache (4 bytes @ 0x200002C4) -- Data:  49 17 00 08  returns 0x00 (0004ms, 2343ms total)
T141C 022:848 JLINK_ReadMemU32(0xE0001004, 0x0001 Items, ...) >0x1F0 JTAG> -- Data:  5E 81 1A 00  returns 0x01 (0003ms, 2347ms total)
T166C 023:544 JLINK_Step() >0x198 JTAG> >0x578 JTAG> -- Updating C cache (64 bytes @ 0x080016C0) -- Read from C cache (2 bytes @ 0x080016E6) -- Simulated  returns 0x00 (0008ms, 2350ms total)
T166C 023:552 JLINK_ReadReg(R15)  returns 0x080016E8 (0000ms, 2358ms total)
T166C 023:552 JLINK_ReadReg(XPSR)  returns 0x61000000 (0000ms, 2358ms total)
T166C 023:552 JLINK_SetBPEx(Addr = 0x080016E6, Type = 0xFFFFFFF2)  returns 0x0000000B (0000ms, 2358ms total)
T166C 023:552 JLINK_SetBPEx(Addr = 0x080016EA, Type = 0xFFFFFFF2)  returns 0x0000000C (0001ms, 2358ms total)
T166C 023:553 JLINK_Go() >0x1F0 JTAG> >0x1F0 JTAG> >0x1F0 JTAG> >0x1F0 JTAG> >0x1F0 JTAG> >0x1F0 JTAG> >0x310 JTAG> >0x218 JTAG> >0x218 JTAG> >0x240 JTAG> >0x240 JTAG> (0039ms, 2359ms total)
T166C 023:693 JLINK_IsHalted() >0x198 JTAG> >0x17A8 JTAG>  returns TRUE (0012ms, 2398ms total)
T166C 023:705 JLINK_Halt()  returns 0x00 (0000ms, 2398ms total)
T166C 023:705 JLINK_IsHalted()  returns TRUE (0000ms, 2398ms total)
T166C 023:705 JLINK_IsHalted()  returns TRUE (0000ms, 2398ms total)
T166C 023:705 JLINK_IsHalted()  returns TRUE (0000ms, 2398ms total)
T166C 023:706 JLINK_ReadReg(R15)  returns 0x080016EA (0000ms, 2398ms total)
T166C 023:706 JLINK_ReadReg(XPSR)  returns 0x41000000 (0000ms, 2398ms total)
T166C 023:706 JLINK_ClrBPEx(BPHandle = 0x0000000B)  returns 0x00 (0000ms, 2398ms total)
T166C 023:706 JLINK_ClrBPEx(BPHandle = 0x0000000C)  returns 0x00 (0000ms, 2398ms total)
T166C 023:706 JLINK_ReadMemU32(0xE000ED30, 0x0001 Items, ...) >0x1F0 JTAG> -- Data:  0B 00 00 00  returns 0x01 (0002ms, 2398ms total)
T166C 023:708 JLINK_ReadMemU32(0xE0001028, 0x0001 Items, ...) >0x1F0 JTAG> -- Data:  00 00 00 00  returns 0x01 (0003ms, 2400ms total)
T166C 023:711 JLINK_ReadMemU32(0xE0001038, 0x0001 Items, ...) >0x1F0 JTAG> -- Data:  00 02 00 00  returns 0x01 (0003ms, 2403ms total)
T166C 023:714 JLINK_ReadMemU32(0xE0001048, 0x0001 Items, ...) >0x1F0 JTAG> -- Data:  00 00 00 00  returns 0x01 (0003ms, 2406ms total)
T166C 023:717 JLINK_ReadMemU32(0xE0001058, 0x0001 Items, ...) >0x1F0 JTAG> -- Data:  00 00 00 00  returns 0x01 (0003ms, 2409ms total)
T166C 023:720 JLINK_ReadReg(R0)  returns 0x00000000 (0000ms, 2412ms total)
T166C 023:720 JLINK_ReadReg(R1)  returns 0x00000100 (0000ms, 2412ms total)
T166C 023:721 JLINK_ReadReg(R2)  returns 0x0000E0FE (0000ms, 2412ms total)
T166C 023:721 JLINK_ReadReg(R3)  returns 0x2000029C (0000ms, 2412ms total)
T166C 023:721 JLINK_ReadReg(R4)  returns 0x000000FF (0000ms, 2412ms total)
T166C 023:721 JLINK_ReadReg(R5)  returns 0x20000064 (0000ms, 2412ms total)
T166C 023:721 JLINK_ReadReg(R6)  returns 0x00000000 (0000ms, 2412ms total)
T166C 023:721 JLINK_ReadReg(R7)  returns 0x00000000 (0000ms, 2412ms total)
T166C 023:721 JLINK_ReadReg(R8)  returns 0x00000000 (0001ms, 2412ms total)
T166C 023:722 JLINK_ReadReg(R9)  returns 0x20000160 (0000ms, 2413ms total)
T166C 023:722 JLINK_ReadReg(R10)  returns 0x08001F84 (0000ms, 2413ms total)
T166C 023:722 JLINK_ReadReg(R11)  returns 0x00000000 (0000ms, 2413ms total)
T166C 023:722 JLINK_ReadReg(R12)  returns 0x0000000F (0000ms, 2413ms total)
T166C 023:722 JLINK_ReadReg(R13)  returns 0x200002C0 (0000ms, 2413ms total)
T166C 023:722 JLINK_ReadReg(R14)  returns 0x080019C1 (0000ms, 2413ms total)
T166C 023:722 JLINK_ReadReg(R15)  returns 0x080016EA (0001ms, 2413ms total)
T166C 023:723 JLINK_ReadReg(XPSR)  returns 0x41000000 (0000ms, 2414ms total)
T166C 023:723 JLINK_ReadReg(MSP)  returns 0x200002C0 (0000ms, 2414ms total)
T166C 023:723 JLINK_ReadReg(PSP)  returns 0x20000800 (0000ms, 2414ms total)
T166C 023:723 JLINK_ReadReg(CFBP)  returns 0x00000000 (0000ms, 2414ms total)
T166C 023:723 JLINK_ReadMem (0x200002C4, 0x0004 Bytes, ...) >0x578 JTAG> -- Updating C cache (64 bytes @ 0x200002C0) -- Read from C cache (4 bytes @ 0x200002C4) -- Data:  49 17 00 08  returns 0x00 (0004ms, 2414ms total)
T141C 023:728 JLINK_ReadMemU32(0xE0001004, 0x0001 Items, ...) >0x1F0 JTAG> -- Data:  37 80 20 00  returns 0x01 (0003ms, 2418ms total)
T166C 024:480 JLINK_Step() >0x198 JTAG> >0x578 JTAG> -- Updating C cache (64 bytes @ 0x080016C0) -- Read from C cache (2 bytes @ 0x080016EA) -- Not simulated >0x1F0 JTAG> >0x1F0 JTAG> >0x1F0 JTAG> >0x1F0 JTAG> >0x1F0 JTAG> >0x1F0 JTAG> >0x240 JTAG> >0x240 JTAG> >0x198 JTAG> >0x17A8 JTAG> >0x240 JTAG> >0x1F0 JTAG>  returns 0x00 (0057ms, 2421ms total)
T166C 024:538 JLINK_ReadReg(R15)  returns 0x080016EC (0000ms, 2478ms total)
T166C 024:538 JLINK_ReadReg(XPSR)  returns 0x41000000 (0000ms, 2478ms total)
T166C 024:538 JLINK_SetBPEx(Addr = 0x080016E6, Type = 0xFFFFFFF2)  returns 0x0000000D (0000ms, 2478ms total)
T166C 024:538 JLINK_SetBPEx(Addr = 0x080016EA, Type = 0xFFFFFFF2)  returns 0x0000000E (0000ms, 2478ms total)
T166C 024:538 JLINK_Go() >0x1F0 JTAG> >0x1F0 JTAG> >0x1F0 JTAG> >0x1F0 JTAG> >0x1F0 JTAG> >0x1F0 JTAG> >0x240 JTAG> >0x240 JTAG> (0024ms, 2478ms total)
T166C 024:663 JLINK_IsHalted() >0x198 JTAG>  returns FALSE (0002ms, 2502ms total)
T166C 024:766 JLINK_IsHalted() >0x198 JTAG>  returns FALSE (0003ms, 2502ms total)
T166C 024:870 JLINK_IsHalted() >0x198 JTAG> >0x17A8 JTAG>  returns TRUE (0009ms, 2502ms total)
T166C 024:879 JLINK_Halt()  returns 0x00 (0000ms, 2502ms total)
T166C 024:879 JLINK_IsHalted()  returns TRUE (0000ms, 2502ms total)
T166C 024:879 JLINK_IsHalted()  returns TRUE (0000ms, 2502ms total)
T166C 024:879 JLINK_IsHalted()  returns TRUE (0000ms, 2502ms total)
T166C 024:879 JLINK_ReadReg(R15)  returns 0x080016E6 (0001ms, 2502ms total)
T166C 024:880 JLINK_ReadReg(XPSR)  returns 0x21000000 (0000ms, 2503ms total)
T166C 024:881 JLINK_ClrBPEx(BPHandle = 0x0000000D)  returns 0x00 (0000ms, 2504ms total)
T166C 024:881 JLINK_ClrBPEx(BPHandle = 0x0000000E)  returns 0x00 (0000ms, 2504ms total)
T166C 024:881 JLINK_ReadMemU32(0xE000ED30, 0x0001 Items, ...) >0x1F0 JTAG> -- Data:  0B 00 00 00  returns 0x01 (0003ms, 2504ms total)
T166C 024:884 JLINK_ReadMemU32(0xE0001028, 0x0001 Items, ...) >0x1F0 JTAG> -- Data:  00 00 00 00  returns 0x01 (0003ms, 2507ms total)
T166C 024:887 JLINK_ReadMemU32(0xE0001038, 0x0001 Items, ...) >0x1F0 JTAG> -- Data:  00 02 00 00  returns 0x01 (0003ms, 2510ms total)
T166C 024:890 JLINK_ReadMemU32(0xE0001048, 0x0001 Items, ...) >0x1F0 JTAG> -- Data:  00 00 00 00  returns 0x01 (0003ms, 2513ms total)
T166C 024:893 JLINK_ReadMemU32(0xE0001058, 0x0001 Items, ...) >0x1F0 JTAG> -- Data:  00 00 00 00  returns 0x01 (0003ms, 2516ms total)
T166C 024:896 JLINK_ReadReg(R0)  returns 0x000000FE (0000ms, 2519ms total)
T166C 024:896 JLINK_ReadReg(R1)  returns 0x00000100 (0001ms, 2519ms total)
T166C 024:897 JLINK_ReadReg(R2)  returns 0x0000E0FE (0000ms, 2520ms total)
T166C 024:897 JLINK_ReadReg(R3)  returns 0x2000029C (0000ms, 2520ms total)
T166C 024:897 JLINK_ReadReg(R4)  returns 0x000000FF (0000ms, 2520ms total)
T166C 024:897 JLINK_ReadReg(R5)  returns 0x20000064 (0000ms, 2520ms total)
T166C 024:897 JLINK_ReadReg(R6)  returns 0x00000000 (0000ms, 2520ms total)
T166C 024:897 JLINK_ReadReg(R7)  returns 0x00000000 (0000ms, 2520ms total)
T166C 024:897 JLINK_ReadReg(R8)  returns 0x00000000 (0001ms, 2520ms total)
T166C 024:898 JLINK_ReadReg(R9)  returns 0x20000160 (0000ms, 2521ms total)
T166C 024:898 JLINK_ReadReg(R10)  returns 0x08001F84 (0000ms, 2521ms total)
T166C 024:898 JLINK_ReadReg(R11)  returns 0x00000000 (0000ms, 2521ms total)
T166C 024:898 JLINK_ReadReg(R12)  returns 0x0000000F (0000ms, 2521ms total)
T166C 024:898 JLINK_ReadReg(R13)  returns 0x200002C0 (0001ms, 2521ms total)
T166C 024:899 JLINK_ReadReg(R14)  returns 0x08001BA9 (0000ms, 2522ms total)
T166C 024:899 JLINK_ReadReg(R15)  returns 0x080016E6 (0000ms, 2522ms total)
T166C 024:899 JLINK_ReadReg(XPSR)  returns 0x21000000 (0000ms, 2522ms total)
T166C 024:899 JLINK_ReadReg(MSP)  returns 0x200002C0 (0000ms, 2522ms total)
T166C 024:899 JLINK_ReadReg(PSP)  returns 0x20000800 (0000ms, 2522ms total)
T166C 024:899 JLINK_ReadReg(CFBP)  returns 0x00000000 (0000ms, 2522ms total)
T166C 024:899 JLINK_ReadMem (0x200002C4, 0x0004 Bytes, ...) >0x578 JTAG> -- Updating C cache (64 bytes @ 0x200002C0) -- Read from C cache (4 bytes @ 0x200002C4) -- Data:  49 17 00 08  returns 0x00 (0004ms, 2522ms total)
T141C 024:905 JLINK_ReadMemU32(0xE0001004, 0x0001 Items, ...) >0x1F0 JTAG> -- Data:  81 6C 69 01  returns 0x01 (0002ms, 2526ms total)
T141C 025:049 JLINK_ReadMem (0x080016E6, 0x0002 Bytes, ...) >0x578 JTAG> -- Updating C cache (64 bytes @ 0x080016C0) -- Read from C cache (2 bytes @ 0x080016E6) -- Data:  00 20  returns 0x00 (0004ms, 2528ms total)
T141C 025:053 JLINK_ReadMem (0x080016E8, 0x003C Bytes, ...) >0x578 JTAG> -- Updating C cache (64 bytes @ 0x08001700) -- Read from C cache (60 bytes @ 0x080016E8) -- Data:  3A E6 00 BF 00 20 17 49 10 39 08 54 40 1C C0 B2 ...  returns 0x00 (0004ms, 2532ms total)
T166C 025:541 JLINK_Step() >0x198 JTAG> -- Read from C cache (2 bytes @ 0x080016E6) -- Simulated  returns 0x00 (0004ms, 2536ms total)
T166C 025:545 JLINK_ReadReg(R15)  returns 0x080016E8 (0000ms, 2540ms total)
T166C 025:545 JLINK_ReadReg(XPSR)  returns 0x61000000 (0000ms, 2540ms total)
T166C 025:545 JLINK_SetBPEx(Addr = 0x080016E6, Type = 0xFFFFFFF2)  returns 0x0000000F (0000ms, 2540ms total)
T166C 025:545 JLINK_SetBPEx(Addr = 0x080016EA, Type = 0xFFFFFFF2)  returns 0x00000010 (0000ms, 2540ms total)
T166C 025:545 JLINK_Go() >0x1F0 JTAG> >0x1F0 JTAG> >0x1F0 JTAG> >0x1F0 JTAG> >0x1F0 JTAG> >0x1F0 JTAG> >0x310 JTAG> >0x218 JTAG> >0x218 JTAG> >0x240 JTAG> >0x240 JTAG> (0030ms, 2540ms total)
T166C 025:675 JLINK_IsHalted() >0x198 JTAG> >0x17A8 JTAG>  returns TRUE (0009ms, 2570ms total)
T166C 025:684 JLINK_Halt()  returns 0x00 (0000ms, 2570ms total)
T166C 025:684 JLINK_IsHalted()  returns TRUE (0000ms, 2570ms total)
T166C 025:684 JLINK_IsHalted()  returns TRUE (0000ms, 2570ms total)
T166C 025:684 JLINK_IsHalted()  returns TRUE (0000ms, 2570ms total)
T166C 025:684 JLINK_ReadReg(R15)  returns 0x080016E6 (0000ms, 2570ms total)
T166C 025:684 JLINK_ReadReg(XPSR)  returns 0x21000000 (0000ms, 2570ms total)
T166C 025:684 JLINK_ClrBPEx(BPHandle = 0x0000000F)  returns 0x00 (0000ms, 2570ms total)
T166C 025:685 JLINK_ClrBPEx(BPHandle = 0x00000010)  returns 0x00 (0000ms, 2571ms total)
T166C 025:685 JLINK_ReadMemU32(0xE000ED30, 0x0001 Items, ...) >0x1F0 JTAG> -- Data:  0B 00 00 00  returns 0x01 (0002ms, 2571ms total)
T166C 025:687 JLINK_ReadMemU32(0xE0001028, 0x0001 Items, ...) >0x1F0 JTAG> -- Data:  00 00 00 00  returns 0x01 (0003ms, 2573ms total)
T166C 025:690 JLINK_ReadMemU32(0xE0001038, 0x0001 Items, ...) >0x1F0 JTAG> -- Data:  00 02 00 00  returns 0x01 (0003ms, 2576ms total)
T166C 025:693 JLINK_ReadMemU32(0xE0001048, 0x0001 Items, ...) >0x1F0 JTAG> -- Data:  00 00 00 00  returns 0x01 (0003ms, 2579ms total)
T166C 025:696 JLINK_ReadMemU32(0xE0001058, 0x0001 Items, ...) >0x1F0 JTAG> -- Data:  00 00 00 00  returns 0x01 (0003ms, 2582ms total)
T166C 025:699 JLINK_ReadReg(R0)  returns 0x000000FE (0000ms, 2585ms total)
T166C 025:699 JLINK_ReadReg(R1)  returns 0x00000100 (0000ms, 2585ms total)
T166C 025:700 JLINK_ReadReg(R2)  returns 0x0000E0FE (0000ms, 2586ms total)
T166C 025:700 JLINK_ReadReg(R3)  returns 0x2000029C (0000ms, 2586ms total)
T166C 025:700 JLINK_ReadReg(R4)  returns 0x000000FF (0000ms, 2586ms total)
T166C 025:700 JLINK_ReadReg(R5)  returns 0x20000064 (0000ms, 2586ms total)
T166C 025:700 JLINK_ReadReg(R6)  returns 0x00000000 (0000ms, 2586ms total)
T166C 025:700 JLINK_ReadReg(R7)  returns 0x00000000 (0000ms, 2586ms total)
T166C 025:700 JLINK_ReadReg(R8)  returns 0x00000000 (0000ms, 2586ms total)
T166C 025:700 JLINK_ReadReg(R9)  returns 0x20000160 (0000ms, 2586ms total)
T166C 025:700 JLINK_ReadReg(R10)  returns 0x08001F84 (0000ms, 2586ms total)
T166C 025:700 JLINK_ReadReg(R11)  returns 0x00000000 (0001ms, 2586ms total)
T166C 025:701 JLINK_ReadReg(R12)  returns 0x0000000F (0000ms, 2587ms total)
T166C 025:701 JLINK_ReadReg(R13)  returns 0x200002C0 (0000ms, 2587ms total)
T166C 025:701 JLINK_ReadReg(R14)  returns 0x08001BA9 (0000ms, 2587ms total)
T166C 025:701 JLINK_ReadReg(R15)  returns 0x080016E6 (0000ms, 2587ms total)
T166C 025:701 JLINK_ReadReg(XPSR)  returns 0x21000000 (0000ms, 2587ms total)
T166C 025:701 JLINK_ReadReg(MSP)  returns 0x200002C0 (0000ms, 2587ms total)
T166C 025:701 JLINK_ReadReg(PSP)  returns 0x20000800 (0000ms, 2587ms total)
T166C 025:701 JLINK_ReadReg(CFBP)  returns 0x00000000 (0000ms, 2587ms total)
T166C 025:701 JLINK_ReadMem (0x200002C4, 0x0004 Bytes, ...) >0x578 JTAG> -- Updating C cache (64 bytes @ 0x200002C0) -- Read from C cache (4 bytes @ 0x200002C4) -- Data:  49 17 00 08  returns 0x00 (0003ms, 2587ms total)
T141C 025:706 JLINK_ReadMemU32(0xE0001004, 0x0001 Items, ...) >0x1F0 JTAG> -- Data:  5A 9F 6D 01  returns 0x01 (0002ms, 2590ms total)
T166C 026:504 JLINK_Step() >0x198 JTAG> >0x578 JTAG> -- Updating C cache (64 bytes @ 0x080016C0) -- Read from C cache (2 bytes @ 0x080016E6) -- Simulated  returns 0x00 (0009ms, 2592ms total)
T166C 026:513 JLINK_ReadReg(R15)  returns 0x080016E8 (0000ms, 2601ms total)
T166C 026:513 JLINK_ReadReg(XPSR)  returns 0x61000000 (0000ms, 2601ms total)
T166C 026:513 JLINK_SetBPEx(Addr = 0x080016E6, Type = 0xFFFFFFF2)  returns 0x00000011 (0000ms, 2601ms total)
T166C 026:514 JLINK_SetBPEx(Addr = 0x080016EA, Type = 0xFFFFFFF2)  returns 0x00000012 (0000ms, 2601ms total)
T166C 026:514 JLINK_Go() >0x1F0 JTAG> >0x1F0 JTAG> >0x1F0 JTAG> >0x1F0 JTAG> >0x1F0 JTAG> >0x1F0 JTAG> >0x310 JTAG> >0x218 JTAG> >0x218 JTAG> >0x240 JTAG> >0x240 JTAG> (0034ms, 2601ms total)
T166C 026:649 JLINK_IsHalted() >0x198 JTAG> >0x17A8 JTAG>  returns TRUE (0009ms, 2635ms total)
T166C 026:658 JLINK_Halt()  returns 0x00 (0000ms, 2635ms total)
T166C 026:658 JLINK_IsHalted()  returns TRUE (0001ms, 2635ms total)
T166C 026:659 JLINK_IsHalted()  returns TRUE (0000ms, 2635ms total)
T166C 026:659 JLINK_IsHalted()  returns TRUE (0000ms, 2635ms total)
T166C 026:659 JLINK_ReadReg(R15)  returns 0x080016E6 (0000ms, 2635ms total)
T166C 026:659 JLINK_ReadReg(XPSR)  returns 0x21000000 (0000ms, 2635ms total)
T166C 026:659 JLINK_ClrBPEx(BPHandle = 0x00000011)  returns 0x00 (0000ms, 2635ms total)
T166C 026:659 JLINK_ClrBPEx(BPHandle = 0x00000012)  returns 0x00 (0001ms, 2635ms total)
T166C 026:660 JLINK_ReadMemU32(0xE000ED30, 0x0001 Items, ...) >0x1F0 JTAG> -- Data:  0B 00 00 00  returns 0x01 (0002ms, 2636ms total)
T166C 026:662 JLINK_ReadMemU32(0xE0001028, 0x0001 Items, ...) >0x1F0 JTAG> -- Data:  00 00 00 00  returns 0x01 (0003ms, 2638ms total)
T166C 026:665 JLINK_ReadMemU32(0xE0001038, 0x0001 Items, ...) >0x1F0 JTAG> -- Data:  00 02 00 00  returns 0x01 (0002ms, 2641ms total)
T166C 026:667 JLINK_ReadMemU32(0xE0001048, 0x0001 Items, ...) >0x1F0 JTAG> -- Data:  00 00 00 00  returns 0x01 (0004ms, 2643ms total)
T166C 026:671 JLINK_ReadMemU32(0xE0001058, 0x0001 Items, ...) >0x1F0 JTAG> -- Data:  00 00 00 00  returns 0x01 (0003ms, 2647ms total)
T166C 026:674 JLINK_ReadReg(R0)  returns 0x000000FE (0000ms, 2650ms total)
T166C 026:674 JLINK_ReadReg(R1)  returns 0x00000100 (0000ms, 2650ms total)
T166C 026:674 JLINK_ReadReg(R2)  returns 0x0000E0FE (0000ms, 2650ms total)
T166C 026:674 JLINK_ReadReg(R3)  returns 0x2000029C (0000ms, 2650ms total)
T166C 026:674 JLINK_ReadReg(R4)  returns 0x000000FF (0001ms, 2650ms total)
T166C 026:675 JLINK_ReadReg(R5)  returns 0x20000064 (0000ms, 2651ms total)
T166C 026:675 JLINK_ReadReg(R6)  returns 0x00000000 (0000ms, 2651ms total)
T166C 026:675 JLINK_ReadReg(R7)  returns 0x00000000 (0000ms, 2651ms total)
T166C 026:675 JLINK_ReadReg(R8)  returns 0x00000000 (0000ms, 2651ms total)
T166C 026:675 JLINK_ReadReg(R9)  returns 0x20000160 (0000ms, 2651ms total)
T166C 026:675 JLINK_ReadReg(R10)  returns 0x08001F84 (0001ms, 2651ms total)
T166C 026:676 JLINK_ReadReg(R11)  returns 0x00000000 (0000ms, 2652ms total)
T166C 026:676 JLINK_ReadReg(R12)  returns 0x0000000F (0000ms, 2652ms total)
T166C 026:676 JLINK_ReadReg(R13)  returns 0x200002C0 (0000ms, 2652ms total)
T166C 026:676 JLINK_ReadReg(R14)  returns 0x08001BA9 (0000ms, 2652ms total)
T166C 026:676 JLINK_ReadReg(R15)  returns 0x080016E6 (0000ms, 2652ms total)
T166C 026:676 JLINK_ReadReg(XPSR)  returns 0x21000000 (0000ms, 2652ms total)
T166C 026:677 JLINK_ReadReg(MSP)  returns 0x200002C0 (0000ms, 2652ms total)
T166C 026:677 JLINK_ReadReg(PSP)  returns 0x20000800 (0000ms, 2652ms total)
T166C 026:677 JLINK_ReadReg(CFBP)  returns 0x00000000 (0000ms, 2652ms total)
T166C 026:677 JLINK_ReadMem (0x200002C4, 0x0004 Bytes, ...) >0x578 JTAG> -- Updating C cache (64 bytes @ 0x200002C0) -- Read from C cache (4 bytes @ 0x200002C4) -- Data:  49 17 00 08  returns 0x00 (0004ms, 2652ms total)
T141C 026:682 JLINK_ReadMemU32(0xE0001004, 0x0001 Items, ...) >0x1F0 JTAG> -- Data:  78 EF 71 01  returns 0x01 (0003ms, 2656ms total)
T166C 027:409 JLINK_Step() >0x198 JTAG> >0x578 JTAG> -- Updating C cache (64 bytes @ 0x080016C0) -- Read from C cache (2 bytes @ 0x080016E6) -- Simulated  returns 0x00 (0006ms, 2659ms total)
T166C 027:415 JLINK_ReadReg(R15)  returns 0x080016E8 (0000ms, 2665ms total)
T166C 027:415 JLINK_ReadReg(XPSR)  returns 0x61000000 (0000ms, 2665ms total)
T166C 027:415 JLINK_SetBPEx(Addr = 0x080016E6, Type = 0xFFFFFFF2)  returns 0x00000013 (0000ms, 2665ms total)
T166C 027:415 JLINK_SetBPEx(Addr = 0x080016EA, Type = 0xFFFFFFF2)  returns 0x00000014 (0000ms, 2665ms total)
T166C 027:415 JLINK_Go() >0x1F0 JTAG> >0x1F0 JTAG> >0x1F0 JTAG> >0x1F0 JTAG> >0x1F0 JTAG> >0x1F0 JTAG> >0x310 JTAG> >0x218 JTAG> >0x218 JTAG> >0x240 JTAG> >0x240 JTAG> (0034ms, 2665ms total)
T166C 027:549 JLINK_IsHalted() >0x198 JTAG> >0x17A8 JTAG>  returns TRUE (0011ms, 2699ms total)
T166C 027:560 JLINK_Halt()  returns 0x00 (0000ms, 2699ms total)
T166C 027:560 JLINK_IsHalted()  returns TRUE (0000ms, 2699ms total)
T166C 027:560 JLINK_IsHalted()  returns TRUE (0000ms, 2699ms total)
T166C 027:560 JLINK_IsHalted()  returns TRUE (0001ms, 2699ms total)
T166C 027:561 JLINK_ReadReg(R15)  returns 0x080016E6 (0000ms, 2699ms total)
T166C 027:561 JLINK_ReadReg(XPSR)  returns 0x21000000 (0001ms, 2699ms total)
T166C 027:562 JLINK_ClrBPEx(BPHandle = 0x00000013)  returns 0x00 (0000ms, 2700ms total)
T166C 027:562 JLINK_ClrBPEx(BPHandle = 0x00000014)  returns 0x00 (0000ms, 2700ms total)
T166C 027:562 JLINK_ReadMemU32(0xE000ED30, 0x0001 Items, ...) >0x1F0 JTAG> -- Data:  0B 00 00 00  returns 0x01 (0003ms, 2700ms total)
T166C 027:565 JLINK_ReadMemU32(0xE0001028, 0x0001 Items, ...) >0x1F0 JTAG> -- Data:  00 00 00 00  returns 0x01 (0003ms, 2703ms total)
T166C 027:568 JLINK_ReadMemU32(0xE0001038, 0x0001 Items, ...) >0x1F0 JTAG> -- Data:  00 02 00 00  returns 0x01 (0013ms, 2706ms total)
T166C 027:582 JLINK_ReadMemU32(0xE0001048, 0x0001 Items, ...) >0x1F0 JTAG> -- Data:  00 00 00 00  returns 0x01 (0002ms, 2719ms total)
T166C 027:584 JLINK_ReadMemU32(0xE0001058, 0x0001 Items, ...) >0x1F0 JTAG> -- Data:  00 00 00 00  returns 0x01 (0003ms, 2721ms total)
T166C 027:587 JLINK_ReadReg(R0)  returns 0x000000FE (0000ms, 2724ms total)
T166C 027:587 JLINK_ReadReg(R1)  returns 0x00000100 (0000ms, 2724ms total)
T166C 027:587 JLINK_ReadReg(R2)  returns 0x0000E0FE (0000ms, 2724ms total)
T166C 027:587 JLINK_ReadReg(R3)  returns 0x2000029C (0000ms, 2724ms total)
T166C 027:587 JLINK_ReadReg(R4)  returns 0x000000FF (0000ms, 2724ms total)
T166C 027:588 JLINK_ReadReg(R5)  returns 0x20000064 (0000ms, 2725ms total)
T166C 027:588 JLINK_ReadReg(R6)  returns 0x00000000 (0000ms, 2725ms total)
T166C 027:588 JLINK_ReadReg(R7)  returns 0x00000000 (0000ms, 2725ms total)
T166C 027:588 JLINK_ReadReg(R8)  returns 0x00000000 (0000ms, 2725ms total)
T166C 027:588 JLINK_ReadReg(R9)  returns 0x20000160 (0000ms, 2725ms total)
T166C 027:588 JLINK_ReadReg(R10)  returns 0x08001F84 (0000ms, 2725ms total)
T166C 027:588 JLINK_ReadReg(R11)  returns 0x00000000 (0001ms, 2725ms total)
T166C 027:589 JLINK_ReadReg(R12)  returns 0x0000000F (0000ms, 2726ms total)
T166C 027:589 JLINK_ReadReg(R13)  returns 0x200002C0 (0000ms, 2726ms total)
T166C 027:589 JLINK_ReadReg(R14)  returns 0x08001BA9 (0000ms, 2726ms total)
T166C 027:589 JLINK_ReadReg(R15)  returns 0x080016E6 (0000ms, 2726ms total)
T166C 027:589 JLINK_ReadReg(XPSR)  returns 0x21000000 (0000ms, 2726ms total)
T166C 027:589 JLINK_ReadReg(MSP)  returns 0x200002C0 (0000ms, 2726ms total)
T166C 027:590 JLINK_ReadReg(PSP)  returns 0x20000800 (0000ms, 2727ms total)
T166C 027:590 JLINK_ReadReg(CFBP)  returns 0x00000000 (0000ms, 2727ms total)
T166C 027:590 JLINK_ReadMem (0x200002C4, 0x0004 Bytes, ...) >0x578 JTAG> -- Updating C cache (64 bytes @ 0x200002C0) -- Read from C cache (4 bytes @ 0x200002C4) -- Data:  49 17 00 08  returns 0x00 (0004ms, 2727ms total)
T141C 027:595 JLINK_ReadMemU32(0xE0001004, 0x0001 Items, ...) >0x1F0 JTAG> -- Data:  2B 5C 76 01  returns 0x01 (0003ms, 2731ms total)
T166C 028:469 JLINK_Step() >0x198 JTAG> >0x578 JTAG> -- Updating C cache (64 bytes @ 0x080016C0) -- Read from C cache (2 bytes @ 0x080016E6) -- Simulated  returns 0x00 (0006ms, 2734ms total)
T166C 028:475 JLINK_ReadReg(R15)  returns 0x080016E8 (0000ms, 2740ms total)
T166C 028:475 JLINK_ReadReg(XPSR)  returns 0x61000000 (0000ms, 2740ms total)
T166C 028:475 JLINK_SetBPEx(Addr = 0x080016E6, Type = 0xFFFFFFF2)  returns 0x00000015 (0000ms, 2740ms total)
